
T1A0C 1001:430 SEGGER J-Link V6.32i Log File (0001ms, 0010ms total)
T1A0C 1001:430 DLL Compiled: Jul 24 2018 15:19:55 (0001ms, 0010ms total)
T1A0C 1001:430 Logging started @ 2019-01-30 15:21 (0001ms, 0010ms total)
T1A0C 1001:431 JLINK_SetWarnOutHandler(...) (0000ms, 0010ms total)
T1A0C 1001:431 JLINK_OpenEx(...)
Firmware: J-Link V10 compiled Oct 15 2018 16:40:35
Hardware: V10.10
S/N: 260106173
Feature(s): FlashBP, GDB, FlashDL, JFlash, RDI
TELNET listener socket opened on port 19021WEBSRV 
Starting webserver (0017ms, 0027ms total)
T1A0C 1001:431 WEBSRV Webserver running on local port 19080 (0017ms, 0027ms total)
T1A0C 1001:431   returns O.K. (0017ms, 0027ms total)
T1A0C 1001:448 JLINK_GetEmuCaps()  returns 0xB9FF7BBF (0000ms, 0027ms total)
T1A0C 1001:448 JLINK_TIF_GetAvailable(...) (0001ms, 0028ms total)
T1A0C 1001:449 JLINK_SetErrorOutHandler(...) (0000ms, 0028ms total)
T1A0C 1001:449 JLINK_ExecCommand("ProjectFile = "F:\repository_git\BLE_SDK_V1.2_2751\app\freertos\ble\examples\osapp_dis_server\apollo_00_keil5\JLinkSettings.ini"", ...).   returns 0x00 (0001ms, 0029ms total)
T1A0C 1001:450 JLINK_ExecCommand("Device = ARMCM0P", ...). Device "CORTEX-M0" selected.  returns 0x00 (0000ms, 0029ms total)
T1A0C 1001:450 JLINK_ExecCommand("DisableConnectionTimeout", ...).   returns 0x01 (0000ms, 0029ms total)
T1A0C 1001:450 JLINK_GetHardwareVersion()  returns 0x18A88 (0000ms, 0029ms total)
T1A0C 1001:450 JLINK_GetDLLVersion()  returns 63209 (0000ms, 0029ms total)
T1A0C 1001:450 JLINK_GetFirmwareString(...) (0000ms, 0029ms total)
T1A0C 1001:450 JLINK_GetDLLVersion()  returns 63209 (0000ms, 0029ms total)
T1A0C 1001:450 JLINK_GetCompileDateTime() (0000ms, 0029ms total)
T1A0C 1001:450 JLINK_GetFirmwareString(...) (0000ms, 0029ms total)
T1A0C 1001:450 JLINK_GetHardwareVersion()  returns 0x18A88 (0000ms, 0029ms total)
T1A0C 1001:450 JLINK_TIF_Select(JLINKARM_TIF_SWD)  returns 0x00 (0001ms, 0030ms total)
T1A0C 1001:451 JLINK_SetSpeed(5000) (0001ms, 0031ms total)
T1A0C 1001:452 JLINK_GetId() >0x10B TIF>Found SW-DP with ID 0x0BC11477 >0x0D TIF> >0x28 TIF> >0x0D TIF> >0x28 TIF> >0x0D TIF> >0x28 TIF> >0x0D TIF> >0x28 TIF> >0x0D TIF> >0x21 TIF> >0x0D TIF> >0x28 TIF>Scanning AP map to find all available APs >0x0D TIF> >0x28 TIF> >0x0D TIF> >0x21 TIF> >0x0D TIF> >0x21 TIF> >0x0D TIF> >0x28 TIF> >0x0D TIF> >0x21 TIF> >0x0D TIF> >0x21 TIF>AP[1]: Stopped AP scan as end of AP map has been reachedAP[0]: AHB-AP (IDR: 0x04770031)Iterating through AP map to find AHB-AP to use
 >0x42 TIF> >0x28 TIF> >0x0D TIF> >0x28 TIF> >0x0D TIF> >0x21 TIF> >0x0D TIF> >0x21 TIF> >0x42 TIF> >0x28 TIF> >0x0D TIF> >0x28 TIF> >0x0D TIF> >0x28 TIF> >0x0D TIF> >0x21 TIF> >0x0D TIF> >0x21 TIF>AP[0]: Core foundAP[0]: AHB-AP ROM base: 0xE00FF000 >0x0D TIF> >0x28 TIF> >0x0D TIF> >0x28 TIF> >0x0D TIF> >0x28 TIF> >0x0D TIF> >0x21 TIF> >0x0D TIF> >0x21 TIF>CPUID register: 0x410CC601. Implementer code: 0x41 (ARM)Found Cortex-M0 r0p1, Little endian. -- Max. mem block: 0x00003838
 -- CPU_ReadMem(4 bytes @ 0xE000EDF0) -- CPU_WriteMem(4 bytes @ 0xE000EDF0) -- CPU_ReadMem(4 bytes @ 0xE0002000)FPUnit: 4 code (BP) slots and 0 literal slots -- CPU_ReadMem(4 bytes @ 0xE000EDFC) -- CPU_WriteMem(4 bytes @ 0xE000EDFC) -- CPU_ReadMem(4 bytes @ 0xE0001000) -- CPU_WriteMem(4 bytes @ 0xE0001000)CoreSight components:ROMTbl[0] @ E00FF000 -- CPU_ReadMem(16 bytes @ 0xE00FF000) -- CPU_ReadMem(16 bytes @ 0xE000EFF0) -- CPU_ReadMem(16 bytes @ 0xE000EFE0)
ROMTbl[0][0]: E000E000, CID: B105E00D, PID: 000BB008 SCS -- CPU_ReadMem(16 bytes @ 0xE0001FF0) -- CPU_ReadMem(16 bytes @ 0xE0001FE0)ROMTbl[0][1]: E0001000, CID: B105E00D, PID: 000BB00A DWT -- CPU_ReadMem(16 bytes @ 0xE0002FF0) -- CPU_ReadMem(16 bytes @ 0xE0002FE0)ROMTbl[0][2]: E0002000, CID: B105E00D, PID: 000BB00B FPB >0x0D TIF> >0x21 TIF>  returns 0x0BC11477 (0122ms, 0153ms total)
T1A0C 1001:574 JLINK_GetDLLVersion()  returns 63209 (0000ms, 0153ms total)
T1A0C 1001:574 JLINK_CORE_GetFound()  returns 0x60000FF (0000ms, 0153ms total)
T1A0C 1001:574 JLINK_GetDebugInfo(0x100 = JLINKARM_ROM_TABLE_ADDR_INDEX) -- Value=0xE00FF000  returns 0x00 (0000ms, 0153ms total)
T1A0C 1001:574 JLINK_GetDebugInfo(0x100 = JLINKARM_ROM_TABLE_ADDR_INDEX) -- Value=0xE00FF000  returns 0x00 (0000ms, 0153ms total)
T1A0C 1001:574 JLINK_GetDebugInfo(0x101 = JLINKARM_DEBUG_INFO_ETM_ADDR_INDEX) -- Value=0x00000000  returns 0x00 (0000ms, 0153ms total)
T1A0C 1001:574 JLINK_ReadMemEx(0xE0041FF0, 0x0010 Bytes, ..., Flags = 0x02000004) -- CPU_ReadMem(16 bytes @ 0xE0041FF0) - Data: 00 00 00 00 00 00 00 00 00 00 00 00 00 00 00 00  returns 0x10 (0001ms, 0154ms total)
T1A0C 1001:575 JLINK_GetDebugInfo(0x102 = JLINKARM_DEBUG_INFO_MTB_ADDR_INDEX) -- Value=0x00000000  returns 0x00 (0000ms, 0154ms total)
T1A0C 1001:575 JLINK_GetDebugInfo(0x103 = JLINKARM_DEBUG_INFO_TPIU_ADDR_INDEX) -- Value=0x00000000  returns 0x00 (0000ms, 0154ms total)
T1A0C 1001:575 JLINK_ReadMemEx(0xE0040FF0, 0x0010 Bytes, ..., Flags = 0x02000004) -- CPU_ReadMem(16 bytes @ 0xE0040FF0) - Data: 00 00 00 00 00 00 00 00 00 00 00 00 00 00 00 00  returns 0x10 (0000ms, 0154ms total)
T1A0C 1001:575 JLINK_GetDebugInfo(0x104 = JLINKARM_DEBUG_INFO_ITM_ADDR_INDEX) -- Value=0xE0000000  returns 0x00 (0000ms, 0154ms total)
T1A0C 1001:575 JLINK_GetDebugInfo(0x105 = JLINKARM_DEBUG_INFO_DWT_ADDR_INDEX) -- Value=0xE0001000  returns 0x00 (0000ms, 0154ms total)
T1A0C 1001:575 JLINK_GetDebugInfo(0x106 = JLINKARM_DEBUG_INFO_FPB_ADDR_INDEX) -- Value=0xE0002000  returns 0x00 (0000ms, 0154ms total)
T1A0C 1001:575 JLINK_GetDebugInfo(0x107 = JLINKARM_DEBUG_INFO_NVIC_ADDR_INDEX) -- Value=0xE000E000  returns 0x00 (0000ms, 0154ms total)
T1A0C 1001:575 JLINK_GetDebugInfo(0x10C = JLINKARM_DEBUG_INFO_DBG_ADDR_INDEX) -- Value=0xE000EDF0  returns 0x00 (0000ms, 0154ms total)
T1A0C 1001:575 JLINK_GetDebugInfo(0x01 = Unknown) -- Value=0x00000000  returns 0x00 (0000ms, 0154ms total)
T1A0C 1001:575 JLINK_ReadMemU32(0xE000ED00, 0x0001 Items, ...) -- CPU_ReadMem(4 bytes @ 0xE000ED00) - Data: 01 C6 0C 41  returns 0x01 (0001ms, 0155ms total)
T1A0C 1001:576 JLINK_GetDebugInfo(0x10F = JLINKARM_DEBUG_INFO_HAS_CORTEX_M_SECURITY_EXT_INDEX) -- Value=0x00000000  returns 0x00 (0000ms, 0155ms total)
T1A0C 1001:576 JLINK_SetResetType(JLINKARM_CM3_RESET_TYPE_NORMAL)  returns JLINKARM_CM3_RESET_TYPE_NORMAL (0000ms, 0155ms total)
T1A0C 1001:576 JLINK_Reset() -- CPU is running -- CPU_WriteMem(4 bytes @ 0xE000EDF0) -- CPU is running -- CPU_WriteMem(4 bytes @ 0xE000EDFC)Reset: Halt core after reset via DEMCR.VC_CORERESET. >0x35 TIF>Reset: Reset device via AIRCR.SYSRESETREQ. -- CPU is running -- CPU_WriteMem(4 bytes @ 0xE000ED0C) >0x0D TIF> >0x28 TIF> -- CPU_ReadMem(4 bytes @ 0xE000EDF0) -- CPU_ReadMem(4 bytes @ 0xE000EDF0) -- CPU is running -- CPU_WriteMem(4 bytes @ 0xE000EDF0) -- CPU is running -- CPU_WriteMem(4 bytes @ 0xE000EDFC)
 -- CPU_ReadMem(4 bytes @ 0xE000EDF0) J-Link Script File: Executing AfterResetTarget()  -- CPU_WriteMem(4 bytes @ 0x20201040) -- CPU_WriteMem(4 bytes @ 0x20201040) -- CPU_WriteMem(4 bytes @ 0x20201004) -- CPU_WriteMem(4 bytes @ 0x20201000) -- CPU_WriteMem(4 bytes @ 0x2020101C) -- CPU_WriteMem(4 bytes @ 0x20201008) -- CPU_WriteMem(4 bytes @ 0x2020100C) -- CPU_WriteMem(4 bytes @ 0x20201010) -- CPU_WriteMem(4 bytes @ 0x20201014) -- CPU_WriteMem(4 bytes @ 0x20201018) -- CPU_WriteMem(4 bytes @ 0x20201020)
 -- CPU_WriteMem(4 bytes @ 0x20201024) -- CPU_WriteMem(4 bytes @ 0x2020103C) -- CPU_WriteMem(4 bytes @ 0x20201044) -- CPU_WriteMem(4 bytes @ 0x20201048) -- CPU_WriteMem(4 bytes @ 0x2020104C) -- CPU_WriteMem(4 bytes @ 0x20201050) -- CPU_WriteMem(4 bytes @ 0x20201054) -- CPU_WriteMem(4 bytes @ 0x20201058) -- CPU_WriteMem(4 bytes @ 0x2020105C) -- CPU_WriteMem(4 bytes @ 0x20201060) -- CPU_WriteMem(4 bytes @ 0x20201064) -- CPU_WriteMem(4 bytes @ 0x20201068) -- CPU_WriteMem(4 bytes @ 0x2020106C)
 -- CPU_WriteMem(4 bytes @ 0x20201070) -- CPU_WriteMem(4 bytes @ 0x20201074) -- CPU_WriteMem(4 bytes @ 0x20201078) -- CPU_WriteMem(4 bytes @ 0x2020107C) -- CPU_WriteMem(4 bytes @ 0x20201080) -- CPU_WriteMem(4 bytes @ 0x20201084) -- CPU_WriteMem(4 bytes @ 0x20201088) -- CPU_WriteMem(4 bytes @ 0x2020108C) -- CPU_WriteMem(4 bytes @ 0x20201090) -- CPU_WriteMem(4 bytes @ 0x20201094) -- CPU_WriteMem(4 bytes @ 0x20201098) -- CPU_WriteMem(4 bytes @ 0x2020109C) -- CPU_WriteMem(4 bytes @ 0x202010A0)
 -- CPU_WriteMem(4 bytes @ 0x202010A4) -- CPU_WriteMem(4 bytes @ 0x202010A8) -- CPU_WriteMem(4 bytes @ 0x202010AC) -- CPU_WriteMem(4 bytes @ 0x202010C0) -- CPU_WriteMem(4 bytes @ 0x202010C4) -- CPU_WriteMem(4 bytes @ 0x202010C8) -- CPU_WriteMem(4 bytes @ 0x202010CC)AWO reseted. -- CPU_WriteMem(4 bytes @ 0xE0002000) -- CPU_ReadMem(4 bytes @ 0xE000EDFC) -- CPU_ReadMem(4 bytes @ 0xE0001000) -- CPU_WriteMem(4 bytes @ 0xE0001000) (8940ms, 9095ms total)
T1A0C 1010:517 JLINK_ReadReg(R15 (PC))  returns 0x000000A0 (0000ms, 9095ms total)
T1A0C 1010:517 JLINK_ReadReg(XPSR)  returns 0xF1000000 (0000ms, 9095ms total)
T1A0C 1010:517 JLINK_Halt()  returns 0x00 (0000ms, 9095ms total)
T1A0C 1010:517 JLINK_ReadMemU32(0xE000EDF0, 0x0001 Items, ...) -- CPU_ReadMem(4 bytes @ 0xE000EDF0) - Data: 03 00 03 00  returns 0x01 (0001ms, 9096ms total)
T1A0C 1010:518 JLINK_WriteU32(0xE000EDF0, 0xA05F0003) -- CPU_WriteMem(4 bytes @ 0xE000EDF0)  returns 0x00 (0000ms, 9096ms total)
T1A0C 1010:518 JLINK_WriteU32(0xE000EDFC, 0x01000000) -- CPU_WriteMem(4 bytes @ 0xE000EDFC)  returns 0x00 (0000ms, 9096ms total)
T1A0C 1010:518 JLINK_GetHWStatus(...)  returns 0x00 (0001ms, 9097ms total)
T1A0C 1010:519 JLINK_GetNumBPUnits(Type = 0xFFFFFF00)  returns 0x04 (0000ms, 9097ms total)
T1A0C 1010:519 JLINK_GetNumBPUnits(Type = 0xF0)  returns 0x2000 (0000ms, 9097ms total)
T1A0C 1010:519 JLINK_GetNumWPUnits()  returns 0x02 (0000ms, 9097ms total)
T1A0C 1010:519 JLINK_GetSpeed()  returns 0x1388 (0000ms, 9097ms total)
T1A0C 1010:519 JLINK_ReadMemU32(0xE000E004, 0x0001 Items, ...) -- CPU_ReadMem(4 bytes @ 0xE000E004) - Data: 00 00 00 00  returns 0x01 (0000ms, 9097ms total)
T1A0C 1010:519 JLINK_ReadReg(R15 (PC))  returns 0x000000A0 (0000ms, 9097ms total)
T1A0C 1010:519 JLINK_ReadReg(XPSR)  returns 0xF1000000 (0000ms, 9097ms total)
T1A0C 1013:278 JLINK_ReadMemEx(0x0000000A, 0x0002 Bytes, ..., Flags = 0x02000000) -- CPU_ReadMem(2 bytes @ 0x0000000A) - Data: 00 00  returns 0x02 (0001ms, 9098ms total)
T1A0C 1013:279 JLINK_ReadMemEx(0x0000000C, 0x003C Bytes, ..., Flags = 0x02000000) -- CPU_ReadMem(60 bytes @ 0x0000000C) - Data: A9 00 00 00 A9 00 00 00 A9 00 00 00 A9 00 00 00 ...  returns 0x3C (0000ms, 9098ms total)
T1A0C 1014:445 JLINK_SetResetType(JLINKARM_CM3_RESET_TYPE_NORMAL)  returns JLINKARM_CM3_RESET_TYPE_NORMAL (0000ms, 9098ms total)
T1A0C 1014:445 JLINK_Reset() -- CPU_WriteMem(4 bytes @ 0xE000EDF0) -- CPU_WriteMem(4 bytes @ 0xE000EDFC)Reset: Halt core after reset via DEMCR.VC_CORERESET. >0x35 TIF>Reset: Reset device via AIRCR.SYSRESETREQ. -- CPU_WriteMem(4 bytes @ 0xE000ED0C) >0x0D TIF> >0x28 TIF> -- CPU_ReadMem(4 bytes @ 0xE000EDF0) -- CPU_ReadMem(4 bytes @ 0xE000EDF0) -- CPU_WriteMem(4 bytes @ 0xE000EDF0) -- CPU_WriteMem(4 bytes @ 0xE000EDFC) -- CPU_ReadMem(4 bytes @ 0xE000EDF0) J-Link Script File: Executing AfterResetTarget() 
 -- CPU_WriteMem(4 bytes @ 0x20201040) -- CPU_WriteMem(4 bytes @ 0x20201040) -- CPU_WriteMem(4 bytes @ 0x20201004) -- CPU_WriteMem(4 bytes @ 0x20201000) -- CPU_WriteMem(4 bytes @ 0x2020101C) -- CPU_WriteMem(4 bytes @ 0x20201008) -- CPU_WriteMem(4 bytes @ 0x2020100C) -- CPU_WriteMem(4 bytes @ 0x20201010) -- CPU_WriteMem(4 bytes @ 0x20201014) -- CPU_WriteMem(4 bytes @ 0x20201018) -- CPU_WriteMem(4 bytes @ 0x20201020) -- CPU_WriteMem(4 bytes @ 0x20201024) -- CPU_WriteMem(4 bytes @ 0x2020103C)
 -- CPU_WriteMem(4 bytes @ 0x20201044) -- CPU_WriteMem(4 bytes @ 0x20201048) -- CPU_WriteMem(4 bytes @ 0x2020104C) -- CPU_WriteMem(4 bytes @ 0x20201050) -- CPU_WriteMem(4 bytes @ 0x20201054) -- CPU_WriteMem(4 bytes @ 0x20201058) -- CPU_WriteMem(4 bytes @ 0x2020105C) -- CPU_WriteMem(4 bytes @ 0x20201060) -- CPU_WriteMem(4 bytes @ 0x20201064) -- CPU_WriteMem(4 bytes @ 0x20201068) -- CPU_WriteMem(4 bytes @ 0x2020106C) -- CPU_WriteMem(4 bytes @ 0x20201070) -- CPU_WriteMem(4 bytes @ 0x20201074)
 -- CPU_WriteMem(4 bytes @ 0x20201078) -- CPU_WriteMem(4 bytes @ 0x2020107C) -- CPU_WriteMem(4 bytes @ 0x20201080) -- CPU_WriteMem(4 bytes @ 0x20201084) -- CPU_WriteMem(4 bytes @ 0x20201088) -- CPU_WriteMem(4 bytes @ 0x2020108C) -- CPU_WriteMem(4 bytes @ 0x20201090) -- CPU_WriteMem(4 bytes @ 0x20201094) -- CPU_WriteMem(4 bytes @ 0x20201098) -- CPU_WriteMem(4 bytes @ 0x2020109C) -- CPU_WriteMem(4 bytes @ 0x202010A0) -- CPU_WriteMem(4 bytes @ 0x202010A4) -- CPU_WriteMem(4 bytes @ 0x202010A8)
 -- CPU_WriteMem(4 bytes @ 0x202010AC) -- CPU_WriteMem(4 bytes @ 0x202010C0) -- CPU_WriteMem(4 bytes @ 0x202010C4) -- CPU_WriteMem(4 bytes @ 0x202010C8) -- CPU_WriteMem(4 bytes @ 0x202010CC)AWO reseted.
                JLINK_ReadMemEx(0x00108268, 0x003C Bytes, ..., Flags = 0x02000000) -- CPU_ReadMem(60 bytes @ 0x00108268) - Data: 0B 20 F8 F7 46 FB EF E7 08 04 02 4B 73 74 61 72 ...  returns 0x3C (0001ms, 0001ms total)
               -- CPU_WriteMem(4 bytes @ 0xE0002000) -- CPU_ReadMem(4 bytes @ 0xE000EDFC) -- CPU_ReadMem(4 bytes @ 0xE0001000) -- CPU_WriteMem(4 bytes @ 0xE0001000) (1740ms, 10838ms total)
T1A0C 1016:185 JLINK_ReadReg(R15 (PC))  returns 0x000000A0 (0000ms, 10838ms total)
T1A0C 1016:185 JLINK_ReadReg(XPSR)  returns 0xF1000000 (0000ms, 10838ms total)
T1A0C 1016:187 JLINK_ReadMemEx(0x000000A0, 0x003C Bytes, ..., Flags = 0x02000000) -- CPU_ReadMem(60 bytes @ 0x000000A0) - Data: 02 48 80 47 02 48 00 47 FE E7 00 00 21 01 00 00 ...  returns 0x3C (0001ms, 10839ms total)
T1A0C 1016:312 JLINK_ReadReg(R0)  returns 0xFFFFFFFF (0000ms, 10839ms total)
T1A0C 1016:312 JLINK_ReadReg(R1)  returns 0xFFFFFFFF (0000ms, 10839ms total)
T1A0C 1016:312 JLINK_ReadReg(R2)  returns 0xFFFFFFFF (0000ms, 10839ms total)
T1A0C 1016:312 JLINK_ReadReg(R3)  returns 0xFFFFFFFF (0000ms, 10839ms total)
T1A0C 1016:312 JLINK_ReadReg(R4)  returns 0xFFFFFFFF (0000ms, 10839ms total)
T1A0C 1016:312 JLINK_ReadReg(R5)  returns 0xFFFFFFFF (0000ms, 10839ms total)
T1A0C 1016:312 JLINK_ReadReg(R6)  returns 0xFFFFFFFF (0000ms, 10839ms total)
T1A0C 1016:312 JLINK_ReadReg(R7)  returns 0xFFFFFFFF (0000ms, 10839ms total)
T1A0C 1016:312 JLINK_ReadReg(R8)  returns 0xFFFFFFFF (0000ms, 10839ms total)
T1A0C 1016:312 JLINK_ReadReg(R9)  returns 0xFFFFFFFF (0000ms, 10839ms total)
T1A0C 1016:312 JLINK_ReadReg(R10)  returns 0xFFFFFFFF (0000ms, 10839ms total)
T1A0C 1016:312 JLINK_ReadReg(R11)  returns 0xFFFFFFFF (0000ms, 10839ms total)
T1A0C 1016:312 JLINK_ReadReg(R12)  returns 0xFFFFFFFF (0000ms, 10839ms total)
T1A0C 1016:312 JLINK_ReadReg(R13 (SP))  returns 0x0012FC50 (0000ms, 10839ms total)
T1A0C 1016:312 JLINK_ReadReg(R14)  returns 0xFFFFFFFF (0000ms, 10839ms total)
T1A0C 1016:312 JLINK_ReadReg(R15 (PC))  returns 0x000000A0 (0000ms, 10839ms total)
T1A0C 1016:312 JLINK_ReadReg(XPSR)  returns 0xF1000000 (0000ms, 10839ms total)
T1A0C 1016:312 JLINK_ReadReg(MSP)  returns 0x0012FC50 (0000ms, 10839ms total)
T1A0C 1016:312 JLINK_ReadReg(PSP)  returns 0xFFFFFFFC (0000ms, 10839ms total)
T1A0C 1016:312 JLINK_ReadReg(CFBP)  returns 0x00000000 (0000ms, 10839ms total)
T1EB4 1018:302 JLINK_ReadMemEx(0x000000A0, 0x0002 Bytes, ..., Flags = 0x02000000) -- CPU_ReadMem(2 bytes @ 0x000000A0) - Data: 02 48  returns 0x02 (0001ms, 10840ms total)
T1EB4 1018:303 JLINK_SetBPEx(Addr = 0x00108268, Type = 0xFFFFFFF2)  returns 0x00000001 (0000ms, 10840ms total)
T1EB4 1018:303 JLINK_Go() -- CPU_WriteMem(4 bytes @ 0xE0002000) -- CPU_ReadMem(4 bytes @ 0xE0001000) -- CPU_WriteMem(4 bytes @ 0xE0001000) -- CPU_WriteMem(4 bytes @ 0xE0002008) -- CPU_WriteMem(4 bytes @ 0xE000200C) -- CPU_WriteMem(4 bytes @ 0xE0002010) -- CPU_WriteMem(4 bytes @ 0xE0002014) -- CPU_WriteMem(4 bytes @ 0xE0001004) (0003ms, 10843ms total)
T1EB4 1018:406 JLINK_IsHalted()  returns FALSE (0001ms, 10844ms total)
T1EB4 1018:507 JLINK_IsHalted()  returns FALSE (0000ms, 10843ms total)
T1EB4 1018:608 JLINK_IsHalted()  returns FALSE (0001ms, 10844ms total)
T1EB4 1018:711 JLINK_IsHalted()  returns TRUE (0002ms, 10845ms total)
T1EB4 1018:713 JLINK_Halt()  returns 0x00 (0000ms, 10843ms total)
T1EB4 1018:713 JLINK_IsHalted()  returns TRUE (0000ms, 10843ms total)
T1EB4 1018:713 JLINK_IsHalted()  returns TRUE (0000ms, 10843ms total)
T1EB4 1018:713 JLINK_IsHalted()  returns TRUE (0000ms, 10843ms total)
T1EB4 1018:713 JLINK_ReadReg(R15 (PC))  returns 0x00108268 (0000ms, 10843ms total)
T1EB4 1018:713 JLINK_ReadReg(XPSR)  returns 0x01000000 (0000ms, 10843ms total)
T1EB4 1018:713 JLINK_ClrBPEx(BPHandle = 0x00000001)  returns 0x00 (0000ms, 10843ms total)
T1EB4 1018:713 JLINK_ReadMemU32(0xE000ED30, 0x0001 Items, ...) -- CPU_ReadMem(4 bytes @ 0xE000ED30) - Data: 02 00 00 00  returns 0x01 (0001ms, 10844ms total)
T1EB4 1018:714 JLINK_ReadMemU32(0xE0001028, 0x0001 Items, ...) -- CPU_ReadMem(4 bytes @ 0xE0001028) - Data: 00 00 00 00  returns 0x01 (0002ms, 10846ms total)
T1EB4 1018:716 JLINK_ReadMemU32(0xE0001038, 0x0001 Items, ...) -- CPU_ReadMem(4 bytes @ 0xE0001038) - Data: 00 00 00 00  returns 0x01 (0000ms, 10846ms total)
T1EB4 1018:716 JLINK_ReadReg(R0)  returns 0x10000000 (0000ms, 10846ms total)
T1EB4 1018:716 JLINK_ReadReg(R1)  returns 0xE000ED00 (0001ms, 10847ms total)
T1EB4 1018:717 JLINK_ReadReg(R2)  returns 0x0010ED20 (0000ms, 10847ms total)
T1EB4 1018:717 JLINK_ReadReg(R3)  returns 0x00000000 (0000ms, 10847ms total)
T1EB4 1018:717 JLINK_ReadReg(R4)  returns 0x00000004 (0000ms, 10847ms total)
T1EB4 1018:717 JLINK_ReadReg(R5)  returns 0x00000000 (0000ms, 10847ms total)
T1EB4 1018:717 JLINK_ReadReg(R6)  returns 0xA5A5A5A5 (0000ms, 10847ms total)
T1EB4 1018:717 JLINK_ReadReg(R7)  returns 0xA5A5A5A5 (0000ms, 10847ms total)
T1EB4 1018:717 JLINK_ReadReg(R8)  returns 0xA5A5A5A5 (0000ms, 10847ms total)
T1EB4 1018:717 JLINK_ReadReg(R9)  returns 0xA5A5A5A5 (0000ms, 10847ms total)
T1EB4 1018:717 JLINK_ReadReg(R10)  returns 0xA5A5A5A5 (0000ms, 10847ms total)
T1EB4 1018:717 JLINK_ReadReg(R11)  returns 0xA5A5A5A5 (0000ms, 10847ms total)
T1EB4 1018:717 JLINK_ReadReg(R12)  returns 0x00000000 (0000ms, 10847ms total)
T1EB4 1018:717 JLINK_ReadReg(R13 (SP))  returns 0x0010C248 (0000ms, 10847ms total)
T1EB4 1018:717 JLINK_ReadReg(R14)  returns 0x00108E89 (0000ms, 10847ms total)
T1EB4 1018:717 JLINK_ReadReg(R15 (PC))  returns 0x00108268 (0000ms, 10847ms total)
T1EB4 1018:717 JLINK_ReadReg(XPSR)  returns 0x01000000 (0000ms, 10847ms total)
T1EB4 1018:717 JLINK_ReadReg(MSP)  returns 0x00114F00 (0000ms, 10847ms total)
T1EB4 1018:717 JLINK_ReadReg(PSP)  returns 0x0010C248 (0000ms, 10847ms total)
T1EB4 1018:717 JLINK_ReadReg(CFBP)  returns 0x02000000 (0000ms, 10847ms total)
T1A0C 1018:720 JLINK_ReadMemEx(0x0010C254, 0x0004 Bytes, ..., Flags = 0x02000000) -- CPU_ReadMem(64 bytes @ 0x0010C240) -- Updating DA cache (64 bytes @ 0x0010C240) -- Read from DA cache (4 bytes @ 0x0010C254) - Data: C5 5F 10 00  returns 0x04 (0001ms, 10848ms total)
T1A0C 1018:721 JLINK_ReadMemEx(0x0010C250, 0x0004 Bytes, ..., Flags = 0x02000000) -- Read from DA cache (4 bytes @ 0x0010C250) - Data: 00 00 00 00  returns 0x04 (0000ms, 10848ms total)
T1A0C 1018:721 JLINK_ReadMemEx(0x00000000, 0x0004 Bytes, ..., Flags = 0x02000000) -- CPU_ReadMem(4 bytes @ 0x00000000) - Data: 50 FC 12 00  returns 0x04 (0001ms, 10849ms total)
T1A0C 1018:728 JLINK_ReadMemEx(0x00108262, 0x0002 Bytes, ..., Flags = 0x02000000) -- CPU_ReadMem(64 bytes @ 0x00108240) -- Updating DA cache (64 bytes @ 0x00108240) -- Read from DA cache (2 bytes @ 0x00108262) - Data: 0A 20  returns 0x02 (0001ms, 10850ms total)
T1A0C 1018:729 JLINK_ReadMemEx(0x00108264, 0x003C Bytes, ..., Flags = 0x02000000) -- CPU_ReadMem(64 bytes @ 0x00108280) -- Updating DA cache (64 bytes @ 0x00108280) -- Read from DA cache (60 bytes @ 0x00108264) - Data: 00 F0 F8 FD 0B 20 F8 F7 46 FB EF E7 08 04 02 4B ...  returns 0x3C (0001ms, 10851ms total)
T1EB4 1021:091 JLINK_ReadMemEx(0x00108268, 0x0002 Bytes, ..., Flags = 0x02000000) -- Read from DA cache (2 bytes @ 0x00108268) - Data: 0B 20  returns 0x02 (0000ms, 10851ms total)
T1EB4 1021:091 JLINK_Step() -- Read from DA cache (2 bytes @ 0x00108268) -- CPU_ReadMem(4 bytes @ 0xE000ED18) -- CPU_WriteMem(4 bytes @ 0xE000ED18) -- CPU_ReadMem(4 bytes @ 0xE000ED18) -- CPU_WriteMem(4 bytes @ 0xE000ED18) -- CPU_ReadMem(4 bytes @ 0xE0001004) -- Simulated  returns 0x00 (0006ms, 10857ms total)
T1EB4 1021:097 JLINK_ReadReg(R15 (PC))  returns 0x0010826A (0000ms, 10857ms total)
T1EB4 1021:097 JLINK_ReadReg(XPSR)  returns 0x01000000 (0000ms, 10857ms total)
T1EB4 1021:097 JLINK_SetBPEx(Addr = 0x00108268, Type = 0xFFFFFFF2)  returns 0x00000002 (0000ms, 10857ms total)
T1EB4 1021:097 JLINK_Go() -- CPU_WriteMem(4 bytes @ 0xE0002000) -- CPU_ReadMem(4 bytes @ 0xE0001000) -- CPU_WriteMem(4 bytes @ 0xE0001000) -- CPU_WriteMem(4 bytes @ 0xE0001004) (0005ms, 10862ms total)
T1EB4 1021:202 JLINK_IsHalted()  returns FALSE (0001ms, 10863ms total)
T1EB4 1021:304 JLINK_IsHalted()  returns FALSE (0001ms, 10863ms total)
T1EB4 1021:405 JLINK_IsHalted()  returns TRUE (0003ms, 10865ms total)
T1EB4 1021:408 JLINK_Halt()  returns 0x00 (0000ms, 10862ms total)
T1EB4 1021:408 JLINK_IsHalted()  returns TRUE (0000ms, 10862ms total)
T1EB4 1021:408 JLINK_IsHalted()  returns TRUE (0000ms, 10862ms total)
T1EB4 1021:408 JLINK_IsHalted()  returns TRUE (0000ms, 10862ms total)
T1EB4 1021:408 JLINK_ReadReg(R15 (PC))  returns 0x00108268 (0000ms, 10862ms total)
T1EB4 1021:408 JLINK_ReadReg(XPSR)  returns 0x01000000 (0000ms, 10862ms total)
T1EB4 1021:408 JLINK_ClrBPEx(BPHandle = 0x00000002)  returns 0x00 (0000ms, 10862ms total)
T1EB4 1021:408 JLINK_ReadMemU32(0xE000ED30, 0x0001 Items, ...) -- CPU_ReadMem(4 bytes @ 0xE000ED30) - Data: 02 00 00 00  returns 0x01 (0001ms, 10863ms total)
T1EB4 1021:409 JLINK_ReadMemU32(0xE0001028, 0x0001 Items, ...) -- CPU_ReadMem(4 bytes @ 0xE0001028) - Data: 00 00 00 00  returns 0x01 (0001ms, 10864ms total)
T1EB4 1021:410 JLINK_ReadMemU32(0xE0001038, 0x0001 Items, ...) -- CPU_ReadMem(4 bytes @ 0xE0001038) - Data: 00 00 00 00  returns 0x01 (0000ms, 10864ms total)
T1EB4 1021:410 JLINK_ReadReg(R0)  returns 0x10000000 (0000ms, 10864ms total)
T1EB4 1021:410 JLINK_ReadReg(R1)  returns 0xE000ED00 (0000ms, 10864ms total)
T1EB4 1021:410 JLINK_ReadReg(R2)  returns 0x0010C50C (0000ms, 10864ms total)
T1EB4 1021:410 JLINK_ReadReg(R3)  returns 0x80000000 (0000ms, 10864ms total)
T1EB4 1021:410 JLINK_ReadReg(R4)  returns 0x00000004 (0000ms, 10864ms total)
T1EB4 1021:410 JLINK_ReadReg(R5)  returns 0x00000000 (0000ms, 10864ms total)
T1EB4 1021:410 JLINK_ReadReg(R6)  returns 0xA5A5A5A5 (0000ms, 10864ms total)
T1EB4 1021:410 JLINK_ReadReg(R7)  returns 0xA5A5A5A5 (0000ms, 10864ms total)
T1EB4 1021:410 JLINK_ReadReg(R8)  returns 0xA5A5A5A5 (0000ms, 10864ms total)
T1EB4 1021:410 JLINK_ReadReg(R9)  returns 0xA5A5A5A5 (0000ms, 10864ms total)
T1EB4 1021:410 JLINK_ReadReg(R10)  returns 0xA5A5A5A5 (0000ms, 10864ms total)
T1EB4 1021:410 JLINK_ReadReg(R11)  returns 0xA5A5A5A5 (0000ms, 10864ms total)
T1EB4 1021:410 JLINK_ReadReg(R12)  returns 0x00000000 (0001ms, 10865ms total)
T1EB4 1021:411 JLINK_ReadReg(R13 (SP))  returns 0x0010C248 (0000ms, 10865ms total)
T1EB4 1021:411 JLINK_ReadReg(R14)  returns 0x00108E89 (0000ms, 10865ms total)
T1EB4 1021:411 JLINK_ReadReg(R15 (PC))  returns 0x00108268 (0000ms, 10865ms total)
T1EB4 1021:411 JLINK_ReadReg(XPSR)  returns 0x01000000 (0000ms, 10865ms total)
T1EB4 1021:411 JLINK_ReadReg(MSP)  returns 0x00114F00 (0000ms, 10865ms total)
T1EB4 1021:411 JLINK_ReadReg(PSP)  returns 0x0010C248 (0000ms, 10865ms total)
T1EB4 1021:411 JLINK_ReadReg(CFBP)  returns 0x02000000 (0000ms, 10865ms total)
T1A0C 1021:411 JLINK_ReadMemEx(0x0010C254, 0x0004 Bytes, ..., Flags = 0x02000000) -- CPU_ReadMem(64 bytes @ 0x0010C240) -- Updating DA cache (64 bytes @ 0x0010C240) -- Read from DA cache (4 bytes @ 0x0010C254) - Data: C5 5F 10 00  returns 0x04 (0001ms, 10866ms total)
T1A0C 1021:412 JLINK_ReadMemEx(0x0010C250, 0x0004 Bytes, ..., Flags = 0x02000000) -- Read from DA cache (4 bytes @ 0x0010C250) - Data: FF FF FF FF  returns 0x04 (0000ms, 10866ms total)
T1A0C 1021:412 JLINK_ReadMemEx(0x00000000, 0x0004 Bytes, ..., Flags = 0x02000000) -- CPU_ReadMem(4 bytes @ 0x00000000) - Data: 50 FC 12 00  returns 0x04 (0001ms, 10867ms total)
T1EB4 1022:824 JLINK_ReadMemEx(0x00108268, 0x0002 Bytes, ..., Flags = 0x02000000) -- CPU_ReadMem(64 bytes @ 0x00108240) -- Updating DA cache (64 bytes @ 0x00108240) -- Read from DA cache (2 bytes @ 0x00108268) - Data: 0B 20  returns 0x02 (0001ms, 10868ms total)
T1EB4 1022:825 JLINK_Step() -- Read from DA cache (2 bytes @ 0x00108268) -- CPU_ReadMem(4 bytes @ 0xE0001004) -- Simulated  returns 0x00 (0003ms, 10871ms total)
T1EB4 1022:828 JLINK_ReadReg(R15 (PC))  returns 0x0010826A (0000ms, 10871ms total)
T1EB4 1022:828 JLINK_ReadReg(XPSR)  returns 0x01000000 (0000ms, 10871ms total)
T1EB4 1022:828 JLINK_SetBPEx(Addr = 0x00108268, Type = 0xFFFFFFF2)  returns 0x00000003 (0000ms, 10871ms total)
T1EB4 1022:828 JLINK_Go() -- CPU_WriteMem(4 bytes @ 0xE0002000) -- CPU_ReadMem(4 bytes @ 0xE0001000) -- CPU_WriteMem(4 bytes @ 0xE0001000) -- CPU_WriteMem(4 bytes @ 0xE0001004) (0004ms, 10875ms total)
T1EB4 1022:932 JLINK_IsHalted()  returns FALSE (0000ms, 10875ms total)
T1EB4 1023:032 JLINK_IsHalted()  returns FALSE (0000ms, 10875ms total)
T1EB4 1023:132 JLINK_IsHalted()  returns TRUE (0002ms, 10877ms total)
T1EB4 1023:134 JLINK_Halt()  returns 0x00 (0000ms, 10875ms total)
T1EB4 1023:134 JLINK_IsHalted()  returns TRUE (0000ms, 10875ms total)
T1EB4 1023:134 JLINK_IsHalted()  returns TRUE (0000ms, 10875ms total)
T1EB4 1023:134 JLINK_IsHalted()  returns TRUE (0000ms, 10875ms total)
T1EB4 1023:134 JLINK_ReadReg(R15 (PC))  returns 0x00108268 (0000ms, 10875ms total)
T1EB4 1023:134 JLINK_ReadReg(XPSR)  returns 0x01000000 (0000ms, 10875ms total)
T1EB4 1023:134 JLINK_ClrBPEx(BPHandle = 0x00000003)  returns 0x00 (0000ms, 10875ms total)
T1EB4 1023:134 JLINK_ReadMemU32(0xE000ED30, 0x0001 Items, ...) -- CPU_ReadMem(4 bytes @ 0xE000ED30) - Data: 02 00 00 00  returns 0x01 (0001ms, 10876ms total)
T1EB4 1023:135 JLINK_ReadMemU32(0xE0001028, 0x0001 Items, ...) -- CPU_ReadMem(4 bytes @ 0xE0001028) - Data: 00 00 00 00  returns 0x01 (0000ms, 10876ms total)
T1EB4 1023:135 JLINK_ReadMemU32(0xE0001038, 0x0001 Items, ...) -- CPU_ReadMem(4 bytes @ 0xE0001038) - Data: 00 00 00 00  returns 0x01 (0001ms, 10877ms total)
T1EB4 1023:136 JLINK_ReadReg(R0)  returns 0x10000000 (0000ms, 10877ms total)
T1EB4 1023:136 JLINK_ReadReg(R1)  returns 0xE000ED00 (0000ms, 10877ms total)
T1EB4 1023:136 JLINK_ReadReg(R2)  returns 0x0010C50C (0000ms, 10877ms total)
T1EB4 1023:136 JLINK_ReadReg(R3)  returns 0x80000000 (0000ms, 10877ms total)
T1EB4 1023:136 JLINK_ReadReg(R4)  returns 0x00000004 (0000ms, 10877ms total)
T1EB4 1023:136 JLINK_ReadReg(R5)  returns 0x00000000 (0000ms, 10877ms total)
T1EB4 1023:136 JLINK_ReadReg(R6)  returns 0xA5A5A5A5 (0000ms, 10877ms total)
T1EB4 1023:136 JLINK_ReadReg(R7)  returns 0xA5A5A5A5 (0000ms, 10877ms total)
T1EB4 1023:136 JLINK_ReadReg(R8)  returns 0xA5A5A5A5 (0000ms, 10877ms total)
T1EB4 1023:136 JLINK_ReadReg(R9)  returns 0xA5A5A5A5 (0000ms, 10877ms total)
T1EB4 1023:136 JLINK_ReadReg(R10)  returns 0xA5A5A5A5 (0000ms, 10877ms total)
T1EB4 1023:136 JLINK_ReadReg(R11)  returns 0xA5A5A5A5 (0000ms, 10877ms total)
T1EB4 1023:136 JLINK_ReadReg(R12)  returns 0x00000000 (0000ms, 10877ms total)
T1EB4 1023:136 JLINK_ReadReg(R13 (SP))  returns 0x0010C248 (0000ms, 10877ms total)
T1EB4 1023:136 JLINK_ReadReg(R14)  returns 0x00108E89 (0000ms, 10877ms total)
T1EB4 1023:136 JLINK_ReadReg(R15 (PC))  returns 0x00108268 (0000ms, 10877ms total)
T1EB4 1023:136 JLINK_ReadReg(XPSR)  returns 0x01000000 (0000ms, 10877ms total)
T1EB4 1023:136 JLINK_ReadReg(MSP)  returns 0x00114F00 (0000ms, 10877ms total)
T1EB4 1023:136 JLINK_ReadReg(PSP)  returns 0x0010C248 (0000ms, 10877ms total)
T1EB4 1023:136 JLINK_ReadReg(CFBP)  returns 0x02000000 (0000ms, 10877ms total)
T1A0C 1023:136 JLINK_ReadMemEx(0x0010C254, 0x0004 Bytes, ..., Flags = 0x02000000) -- CPU_ReadMem(64 bytes @ 0x0010C240) -- Updating DA cache (64 bytes @ 0x0010C240) -- Read from DA cache (4 bytes @ 0x0010C254) - Data: C5 5F 10 00  returns 0x04 (0001ms, 10878ms total)
T1A0C 1023:137 JLINK_ReadMemEx(0x0010C250, 0x0004 Bytes, ..., Flags = 0x02000000) -- Read from DA cache (4 bytes @ 0x0010C250) - Data: FF FF FF FF  returns 0x04 (0000ms, 10878ms total)
T1A0C 1023:137 JLINK_ReadMemEx(0x00000000, 0x0004 Bytes, ..., Flags = 0x02000000) -- CPU_ReadMem(4 bytes @ 0x00000000) - Data: 50 FC 12 00  returns 0x04 (0001ms, 10879ms total)
T1EB4 1032:280 JLINK_ReadMemEx(0x00108268, 0x0002 Bytes, ..., Flags = 0x02000000) -- CPU_ReadMem(64 bytes @ 0x00108240) -- Updating DA cache (64 bytes @ 0x00108240) -- Read from DA cache (2 bytes @ 0x00108268) - Data: 0B 20  returns 0x02 (0001ms, 10880ms total)
T1EB4 1032:281 JLINK_Step() -- Read from DA cache (2 bytes @ 0x00108268) -- CPU_ReadMem(4 bytes @ 0xE0001004) -- Simulated  returns 0x00 (0001ms, 10881ms total)
T1EB4 1032:282 JLINK_ReadReg(R15 (PC))  returns 0x0010826A (0000ms, 10881ms total)
T1EB4 1032:282 JLINK_ReadReg(XPSR)  returns 0x01000000 (0000ms, 10881ms total)
T1EB4 1032:282 JLINK_SetBPEx(Addr = 0x00108268, Type = 0xFFFFFFF2)  returns 0x00000004 (0000ms, 10881ms total)
T1EB4 1032:283 JLINK_SetBPEx(Addr = 0x00102790, Type = 0xFFFFFFF2)  returns 0x00000005 (0000ms, 10882ms total)
T1EB4 1032:283 JLINK_Go() -- CPU_WriteMem(4 bytes @ 0xE0002000) -- CPU_WriteMem(4 bytes @ 0xE0002000) -- CPU_ReadMem(4 bytes @ 0xE0001000) -- CPU_WriteMem(4 bytes @ 0xE0001000) -- CPU_WriteMem(4 bytes @ 0xE000200C) -- CPU_WriteMem(4 bytes @ 0xE0001004) (0003ms, 10885ms total)
T1EB4 1032:390 JLINK_IsHalted()  returns TRUE (0002ms, 10887ms total)
T1EB4 1032:392 JLINK_Halt()  returns 0x00 (0000ms, 10885ms total)
T1EB4 1032:392 JLINK_IsHalted()  returns TRUE (0000ms, 10885ms total)
T1EB4 1032:392 JLINK_IsHalted()  returns TRUE (0000ms, 10885ms total)
T1EB4 1032:392 JLINK_IsHalted()  returns TRUE (0000ms, 10885ms total)
T1EB4 1032:392 JLINK_ReadReg(R15 (PC))  returns 0x00102790 (0000ms, 10885ms total)
T1EB4 1032:392 JLINK_ReadReg(XPSR)  returns 0x21000000 (0000ms, 10885ms total)
T1EB4 1032:392 JLINK_ClrBPEx(BPHandle = 0x00000004)  returns 0x00 (0000ms, 10885ms total)
T1EB4 1032:392 JLINK_ClrBPEx(BPHandle = 0x00000005)  returns 0x00 (0000ms, 10885ms total)
T1EB4 1032:392 JLINK_ReadMemU32(0xE000ED30, 0x0001 Items, ...) -- CPU_ReadMem(4 bytes @ 0xE000ED30) - Data: 02 00 00 00  returns 0x01 (0000ms, 10885ms total)
T1EB4 1032:392 JLINK_ReadMemU32(0xE0001028, 0x0001 Items, ...) -- CPU_ReadMem(4 bytes @ 0xE0001028) - Data: 00 00 00 00  returns 0x01 (0001ms, 10886ms total)
T1EB4 1032:393 JLINK_ReadMemU32(0xE0001038, 0x0001 Items, ...) -- CPU_ReadMem(4 bytes @ 0xE0001038) - Data: 00 00 00 00  returns 0x01 (0000ms, 10886ms total)
T1EB4 1032:393 JLINK_ReadReg(R0)  returns 0xFFF6F2D4 (0000ms, 10886ms total)
T1EB4 1032:393 JLINK_ReadReg(R1)  returns 0xFFF6F37F (0000ms, 10886ms total)
T1EB4 1032:393 JLINK_ReadReg(R2)  returns 0x20200000 (0000ms, 10886ms total)
T1EB4 1032:393 JLINK_ReadReg(R3)  returns 0xFFF6F2D5 (0000ms, 10886ms total)
T1EB4 1032:393 JLINK_ReadReg(R4)  returns 0xA5A5A5A5 (0000ms, 10886ms total)
T1EB4 1032:393 JLINK_ReadReg(R5)  returns 0xA5A5A5A5 (0000ms, 10886ms total)
T1EB4 1032:393 JLINK_ReadReg(R6)  returns 0xA5A5A5A5 (0000ms, 10886ms total)
T1EB4 1032:393 JLINK_ReadReg(R7)  returns 0xA5A5A5A5 (0000ms, 10886ms total)
T1EB4 1032:393 JLINK_ReadReg(R8)  returns 0xA5A5A5A5 (0000ms, 10886ms total)
T1EB4 1032:393 JLINK_ReadReg(R9)  returns 0xA5A5A5A5 (0000ms, 10886ms total)
T1EB4 1032:393 JLINK_ReadReg(R10)  returns 0xA5A5A5A5 (0000ms, 10886ms total)
T1EB4 1032:393 JLINK_ReadReg(R11)  returns 0xA5A5A5A5 (0000ms, 10886ms total)
T1EB4 1032:393 JLINK_ReadReg(R12)  returns 0xA5A5A5A5 (0000ms, 10886ms total)
T1EB4 1032:393 JLINK_ReadReg(R13 (SP))  returns 0x0010C750 (0000ms, 10886ms total)
T1EB4 1032:393 JLINK_ReadReg(R14)  returns 0x001082CF (0000ms, 10886ms total)
T1EB4 1032:393 JLINK_ReadReg(R15 (PC))  returns 0x00102790 (0000ms, 10886ms total)
T1EB4 1032:393 JLINK_ReadReg(XPSR)  returns 0x21000000 (0000ms, 10886ms total)
T1EB4 1032:393 JLINK_ReadReg(MSP)  returns 0x00114F00 (0000ms, 10886ms total)
T1EB4 1032:393 JLINK_ReadReg(PSP)  returns 0x0010C750 (0000ms, 10886ms total)
T1EB4 1032:393 JLINK_ReadReg(CFBP)  returns 0x02000000 (0000ms, 10886ms total)
T1A0C 1032:393 JLINK_ReadMemEx(0x0010C754, 0x0004 Bytes, ..., Flags = 0x02000000) -- CPU_ReadMem(64 bytes @ 0x0010C740) -- Updating DA cache (64 bytes @ 0x0010C740) -- Read from DA cache (4 bytes @ 0x0010C754) - Data: C5 5F 10 00  returns 0x04 (0001ms, 10887ms total)
T1A0C 1032:395 JLINK_ReadMemEx(0x0010C750, 0x0004 Bytes, ..., Flags = 0x02000000) -- Read from DA cache (4 bytes @ 0x0010C750) - Data: FF FF FF FF  returns 0x04 (0000ms, 10887ms total)
T1A0C 1032:395 JLINK_ReadMemEx(0x00000000, 0x0004 Bytes, ..., Flags = 0x02000000) -- CPU_ReadMem(4 bytes @ 0x00000000) - Data: 50 FC 12 00  returns 0x04 (0000ms, 10887ms total)
T1A0C 1032:397 JLINK_ReadMemEx(0x0010278A, 0x0002 Bytes, ..., Flags = 0x02000000) -- CPU_ReadMem(64 bytes @ 0x00102780) -- Updating DA cache (64 bytes @ 0x00102780) -- Read from DA cache (2 bytes @ 0x0010278A) - Data: 14 20  returns 0x02 (0001ms, 10888ms total)
T1A0C 1032:398 JLINK_ReadMemEx(0x0010278C, 0x003C Bytes, ..., Flags = 0x02000000) -- CPU_ReadMem(64 bytes @ 0x001027C0) -- Updating DA cache (64 bytes @ 0x001027C0) -- Read from DA cache (60 bytes @ 0x0010278C) - Data: 05 F0 98 FD 17 20 01 F0 E3 FE DA E7 02 48 41 68 ...  returns 0x3C (0000ms, 10888ms total)
T1EB4 1033:136 JLINK_ReadMemEx(0x00102790, 0x0002 Bytes, ..., Flags = 0x02000000) -- Read from DA cache (2 bytes @ 0x00102790) - Data: 17 20  returns 0x02 (0000ms, 10888ms total)
T1EB4 1033:136 JLINK_Step() -- Read from DA cache (2 bytes @ 0x00102790) -- CPU_ReadMem(4 bytes @ 0xE0001004) -- Simulated  returns 0x00 (0001ms, 10889ms total)
T1EB4 1033:137 JLINK_ReadReg(R15 (PC))  returns 0x00102792 (0000ms, 10889ms total)
T1EB4 1033:137 JLINK_ReadReg(XPSR)  returns 0x21000000 (0000ms, 10889ms total)
T1EB4 1033:137 JLINK_SetBPEx(Addr = 0x00108268, Type = 0xFFFFFFF2)  returns 0x00000006 (0000ms, 10889ms total)
T1EB4 1033:137 JLINK_SetBPEx(Addr = 0x00102790, Type = 0xFFFFFFF2)  returns 0x00000007 (0000ms, 10889ms total)
T1EB4 1033:137 JLINK_Go() -- CPU_WriteMem(4 bytes @ 0xE0002000) -- CPU_WriteMem(4 bytes @ 0xE0002000) -- CPU_ReadMem(4 bytes @ 0xE0001000) -- CPU_WriteMem(4 bytes @ 0xE0001000) -- CPU_WriteMem(4 bytes @ 0xE0001004) (0003ms, 10892ms total)
T1EB4 1033:240 JLINK_IsHalted()  returns TRUE (0002ms, 10894ms total)
T1EB4 1033:242 JLINK_Halt()  returns 0x00 (0000ms, 10892ms total)
T1EB4 1033:242 JLINK_IsHalted()  returns TRUE (0000ms, 10892ms total)
T1EB4 1033:242 JLINK_IsHalted()  returns TRUE (0000ms, 10892ms total)
T1EB4 1033:242 JLINK_IsHalted()  returns TRUE (0000ms, 10892ms total)
T1EB4 1033:242 JLINK_ReadReg(R15 (PC))  returns 0x00102790 (0000ms, 10892ms total)
T1EB4 1033:242 JLINK_ReadReg(XPSR)  returns 0x21000000 (0000ms, 10892ms total)
T1EB4 1033:242 JLINK_ClrBPEx(BPHandle = 0x00000006)  returns 0x00 (0000ms, 10892ms total)
T1EB4 1033:242 JLINK_ClrBPEx(BPHandle = 0x00000007)  returns 0x00 (0000ms, 10892ms total)
T1EB4 1033:242 JLINK_ReadMemU32(0xE000ED30, 0x0001 Items, ...) -- CPU_ReadMem(4 bytes @ 0xE000ED30) - Data: 02 00 00 00  returns 0x01 (0001ms, 10893ms total)
T1EB4 1033:243 JLINK_ReadMemU32(0xE0001028, 0x0001 Items, ...) -- CPU_ReadMem(4 bytes @ 0xE0001028) - Data: 00 00 00 00  returns 0x01 (0000ms, 10893ms total)
T1EB4 1033:243 JLINK_ReadMemU32(0xE0001038, 0x0001 Items, ...) -- CPU_ReadMem(4 bytes @ 0xE0001038) - Data: 00 00 00 00  returns 0x01 (0001ms, 10894ms total)
T1EB4 1033:244 JLINK_ReadReg(R0)  returns 0xFFF76535 (0000ms, 10894ms total)
T1EB4 1033:244 JLINK_ReadReg(R1)  returns 0xFFF76536 (0000ms, 10894ms total)
T1EB4 1033:244 JLINK_ReadReg(R2)  returns 0x20200000 (0000ms, 10894ms total)
T1EB4 1033:244 JLINK_ReadReg(R3)  returns 0xFFF76536 (0000ms, 10894ms total)
T1EB4 1033:244 JLINK_ReadReg(R4)  returns 0xA5A5A5A5 (0000ms, 10894ms total)
T1EB4 1033:244 JLINK_ReadReg(R5)  returns 0xA5A5A5A5 (0000ms, 10894ms total)
T1EB4 1033:244 JLINK_ReadReg(R6)  returns 0xA5A5A5A5 (0000ms, 10894ms total)
T1EB4 1033:244 JLINK_ReadReg(R7)  returns 0xA5A5A5A5 (0000ms, 10894ms total)
T1EB4 1033:244 JLINK_ReadReg(R8)  returns 0xA5A5A5A5 (0000ms, 10894ms total)
T1EB4 1033:244 JLINK_ReadReg(R9)  returns 0xA5A5A5A5 (0000ms, 10894ms total)
T1EB4 1033:244 JLINK_ReadReg(R10)  returns 0xA5A5A5A5 (0000ms, 10894ms total)
T1EB4 1033:244 JLINK_ReadReg(R11)  returns 0xA5A5A5A5 (0000ms, 10894ms total)
T1EB4 1033:244 JLINK_ReadReg(R12)  returns 0xA5A5A5A5 (0000ms, 10894ms total)
T1EB4 1033:244 JLINK_ReadReg(R13 (SP))  returns 0x0010C750 (0000ms, 10894ms total)
T1EB4 1033:244 JLINK_ReadReg(R14)  returns 0x001082CF (0000ms, 10894ms total)
T1EB4 1033:244 JLINK_ReadReg(R15 (PC))  returns 0x00102790 (0000ms, 10894ms total)
T1EB4 1033:244 JLINK_ReadReg(XPSR)  returns 0x21000000 (0000ms, 10894ms total)
T1EB4 1033:244 JLINK_ReadReg(MSP)  returns 0x00114F00 (0000ms, 10894ms total)
T1EB4 1033:244 JLINK_ReadReg(PSP)  returns 0x0010C750 (0000ms, 10894ms total)
T1EB4 1033:244 JLINK_ReadReg(CFBP)  returns 0x02000000 (0000ms, 10894ms total)
T1A0C 1033:248 JLINK_ReadMemEx(0x0010C754, 0x0004 Bytes, ..., Flags = 0x02000000) -- CPU_ReadMem(64 bytes @ 0x0010C740) -- Updating DA cache (64 bytes @ 0x0010C740) -- Read from DA cache (4 bytes @ 0x0010C754) - Data: C5 5F 10 00  returns 0x04 (0001ms, 10895ms total)
T1A0C 1033:249 JLINK_ReadMemEx(0x0010C750, 0x0004 Bytes, ..., Flags = 0x02000000) -- Read from DA cache (4 bytes @ 0x0010C750) - Data: FF FF FF FF  returns 0x04 (0000ms, 10895ms total)
T1A0C 1033:249 JLINK_ReadMemEx(0x00000000, 0x0004 Bytes, ..., Flags = 0x02000000) -- CPU_ReadMem(4 bytes @ 0x00000000) - Data: 50 FC 12 00  returns 0x04 (0001ms, 10896ms total)
T1EB4 1033:981 JLINK_ReadMemEx(0x00102790, 0x0002 Bytes, ..., Flags = 0x02000000) -- CPU_ReadMem(64 bytes @ 0x00102780) -- Updating DA cache (64 bytes @ 0x00102780) -- Read from DA cache (2 bytes @ 0x00102790) - Data: 17 20  returns 0x02 (0002ms, 10898ms total)
T1EB4 1033:983 JLINK_Step() -- Read from DA cache (2 bytes @ 0x00102790) -- CPU_ReadMem(4 bytes @ 0xE0001004) -- Simulated  returns 0x00 (0003ms, 10901ms total)
T1EB4 1033:986 JLINK_ReadReg(R15 (PC))  returns 0x00102792 (0000ms, 10901ms total)
T1EB4 1033:986 JLINK_ReadReg(XPSR)  returns 0x21000000 (0000ms, 10901ms total)
T1EB4 1033:986 JLINK_SetBPEx(Addr = 0x00108268, Type = 0xFFFFFFF2)  returns 0x00000008 (0000ms, 10901ms total)
T1EB4 1033:986 JLINK_SetBPEx(Addr = 0x00102790, Type = 0xFFFFFFF2)  returns 0x00000009 (0000ms, 10901ms total)
T1EB4 1033:986 JLINK_Go() -- CPU_WriteMem(4 bytes @ 0xE0002000) -- CPU_WriteMem(4 bytes @ 0xE0002000) -- CPU_ReadMem(4 bytes @ 0xE0001000) -- CPU_WriteMem(4 bytes @ 0xE0001000) -- CPU_WriteMem(4 bytes @ 0xE0001004) (0009ms, 10910ms total)
T1EB4 1034:095 JLINK_IsHalted()  returns TRUE (0001ms, 10911ms total)
T1EB4 1034:096 JLINK_Halt()  returns 0x00 (0001ms, 10911ms total)
T1EB4 1034:097 JLINK_IsHalted()  returns TRUE (0000ms, 10911ms total)
T1EB4 1034:097 JLINK_IsHalted()  returns TRUE (0000ms, 10911ms total)
T1EB4 1034:097 JLINK_IsHalted()  returns TRUE (0000ms, 10911ms total)
T1EB4 1034:097 JLINK_ReadReg(R15 (PC))  returns 0x00102790 (0000ms, 10911ms total)
T1EB4 1034:097 JLINK_ReadReg(XPSR)  returns 0x21000000 (0000ms, 10911ms total)
T1EB4 1034:097 JLINK_ClrBPEx(BPHandle = 0x00000008)  returns 0x00 (0000ms, 10911ms total)
T1EB4 1034:097 JLINK_ClrBPEx(BPHandle = 0x00000009)  returns 0x00 (0000ms, 10911ms total)
T1EB4 1034:097 JLINK_ReadMemU32(0xE000ED30, 0x0001 Items, ...) -- CPU_ReadMem(4 bytes @ 0xE000ED30) - Data: 02 00 00 00  returns 0x01 (0000ms, 10911ms total)
T1EB4 1034:097 JLINK_ReadMemU32(0xE0001028, 0x0001 Items, ...) -- CPU_ReadMem(4 bytes @ 0xE0001028) - Data: 00 00 00 00  returns 0x01 (0000ms, 10911ms total)
T1EB4 1034:097 JLINK_ReadMemU32(0xE0001038, 0x0001 Items, ...) -- CPU_ReadMem(4 bytes @ 0xE0001038) - Data: 00 00 00 00  returns 0x01 (0001ms, 10912ms total)
T1EB4 1034:098 JLINK_ReadReg(R0)  returns 0xFFF7D28D (0000ms, 10912ms total)
T1EB4 1034:098 JLINK_ReadReg(R1)  returns 0xFFF7D28E (0000ms, 10912ms total)
T1EB4 1034:098 JLINK_ReadReg(R2)  returns 0x20200000 (0000ms, 10912ms total)
T1EB4 1034:098 JLINK_ReadReg(R3)  returns 0xFFF7D28E (0000ms, 10912ms total)
T1EB4 1034:098 JLINK_ReadReg(R4)  returns 0xA5A5A5A5 (0000ms, 10912ms total)
T1EB4 1034:098 JLINK_ReadReg(R5)  returns 0xA5A5A5A5 (0000ms, 10912ms total)
T1EB4 1034:098 JLINK_ReadReg(R6)  returns 0xA5A5A5A5 (0000ms, 10912ms total)
T1EB4 1034:098 JLINK_ReadReg(R7)  returns 0xA5A5A5A5 (0000ms, 10912ms total)
T1EB4 1034:098 JLINK_ReadReg(R8)  returns 0xA5A5A5A5 (0000ms, 10912ms total)
T1EB4 1034:098 JLINK_ReadReg(R9)  returns 0xA5A5A5A5 (0000ms, 10912ms total)
T1EB4 1034:098 JLINK_ReadReg(R10)  returns 0xA5A5A5A5 (0000ms, 10912ms total)
T1EB4 1034:098 JLINK_ReadReg(R11)  returns 0xA5A5A5A5 (0000ms, 10912ms total)
T1EB4 1034:098 JLINK_ReadReg(R12)  returns 0xA5A5A5A5 (0000ms, 10912ms total)
T1EB4 1034:098 JLINK_ReadReg(R13 (SP))  returns 0x0010C750 (0000ms, 10912ms total)
T1EB4 1034:098 JLINK_ReadReg(R14)  returns 0x001082CF (0000ms, 10912ms total)
T1EB4 1034:098 JLINK_ReadReg(R15 (PC))  returns 0x00102790 (0000ms, 10912ms total)
T1EB4 1034:098 JLINK_ReadReg(XPSR)  returns 0x21000000 (0000ms, 10912ms total)
T1EB4 1034:098 JLINK_ReadReg(MSP)  returns 0x00114F00 (0000ms, 10912ms total)
T1EB4 1034:098 JLINK_ReadReg(PSP)  returns 0x0010C750 (0000ms, 10912ms total)
T1EB4 1034:098 JLINK_ReadReg(CFBP)  returns 0x02000000 (0000ms, 10912ms total)
T1A0C 1034:098 JLINK_ReadMemEx(0x0010C754, 0x0004 Bytes, ..., Flags = 0x02000000) -- CPU_ReadMem(64 bytes @ 0x0010C740) -- Updating DA cache (64 bytes @ 0x0010C740) -- Read from DA cache (4 bytes @ 0x0010C754) - Data: C5 5F 10 00  returns 0x04 (0001ms, 10913ms total)
T1A0C 1034:099 JLINK_ReadMemEx(0x0010C750, 0x0004 Bytes, ..., Flags = 0x02000000) -- Read from DA cache (4 bytes @ 0x0010C750) - Data: FF FF FF FF  returns 0x04 (0000ms, 10913ms total)
T1A0C 1034:099 JLINK_ReadMemEx(0x00000000, 0x0004 Bytes, ..., Flags = 0x02000000) -- CPU_ReadMem(4 bytes @ 0x00000000) - Data: 50 FC 12 00  returns 0x04 (0000ms, 10913ms total)
T1EB4 1034:681 JLINK_ReadMemEx(0x00102790, 0x0002 Bytes, ..., Flags = 0x02000000) -- CPU_ReadMem(64 bytes @ 0x00102780) -- Updating DA cache (64 bytes @ 0x00102780) -- Read from DA cache (2 bytes @ 0x00102790) - Data: 17 20  returns 0x02 (0001ms, 10914ms total)
T1EB4 1034:682 JLINK_Step() -- Read from DA cache (2 bytes @ 0x00102790) -- CPU_ReadMem(4 bytes @ 0xE0001004) -- Simulated  returns 0x00 (0001ms, 10915ms total)
T1EB4 1034:684 JLINK_ReadReg(R15 (PC))  returns 0x00102792 (0000ms, 10915ms total)
T1EB4 1034:684 JLINK_ReadReg(XPSR)  returns 0x21000000 (0000ms, 10915ms total)
T1EB4 1034:684 JLINK_SetBPEx(Addr = 0x00108268, Type = 0xFFFFFFF2)  returns 0x0000000A (0000ms, 10915ms total)
T1EB4 1034:684 JLINK_SetBPEx(Addr = 0x00102790, Type = 0xFFFFFFF2)  returns 0x0000000B (0000ms, 10915ms total)
T1EB4 1034:684 JLINK_Go() -- CPU_WriteMem(4 bytes @ 0xE0002000) -- CPU_WriteMem(4 bytes @ 0xE0002000) -- CPU_ReadMem(4 bytes @ 0xE0001000) -- CPU_WriteMem(4 bytes @ 0xE0001000) -- CPU_WriteMem(4 bytes @ 0xE0001004) (0003ms, 10918ms total)
T1EB4 1034:787 JLINK_IsHalted()  returns TRUE (0003ms, 10921ms total)
T1EB4 1034:790 JLINK_Halt()  returns 0x00 (0000ms, 10918ms total)
T1EB4 1034:790 JLINK_IsHalted()  returns TRUE (0000ms, 10918ms total)
T1EB4 1034:790 JLINK_IsHalted()  returns TRUE (0000ms, 10918ms total)
T1EB4 1034:790 JLINK_IsHalted()  returns TRUE (0000ms, 10918ms total)
T1EB4 1034:790 JLINK_ReadReg(R15 (PC))  returns 0x00102790 (0000ms, 10918ms total)
T1EB4 1034:790 JLINK_ReadReg(XPSR)  returns 0x21000000 (0000ms, 10918ms total)
T1EB4 1034:790 JLINK_ClrBPEx(BPHandle = 0x0000000A)  returns 0x00 (0000ms, 10918ms total)
T1EB4 1034:790 JLINK_ClrBPEx(BPHandle = 0x0000000B)  returns 0x00 (0000ms, 10918ms total)
T1EB4 1034:790 JLINK_ReadMemU32(0xE000ED30, 0x0001 Items, ...) -- CPU_ReadMem(4 bytes @ 0xE000ED30) - Data: 02 00 00 00  returns 0x01 (0001ms, 10919ms total)
T1EB4 1034:791 JLINK_ReadMemU32(0xE0001028, 0x0001 Items, ...) -- CPU_ReadMem(4 bytes @ 0xE0001028) - Data: 00 00 00 00  returns 0x01 (0000ms, 10919ms total)
T1EB4 1034:791 JLINK_ReadMemU32(0xE0001038, 0x0001 Items, ...) -- CPU_ReadMem(4 bytes @ 0xE0001038) - Data: 00 00 00 00  returns 0x01 (0001ms, 10920ms total)
T1EB4 1034:792 JLINK_ReadReg(R0)  returns 0xFFF82B3C (0000ms, 10920ms total)
T1EB4 1034:792 JLINK_ReadReg(R1)  returns 0xFFF82B3D (0000ms, 10920ms total)
T1EB4 1034:792 JLINK_ReadReg(R2)  returns 0x20200000 (0000ms, 10920ms total)
T1EB4 1034:792 JLINK_ReadReg(R3)  returns 0xFFF82B3D (0000ms, 10920ms total)
T1EB4 1034:792 JLINK_ReadReg(R4)  returns 0xA5A5A5A5 (0000ms, 10920ms total)
T1EB4 1034:792 JLINK_ReadReg(R5)  returns 0xA5A5A5A5 (0000ms, 10920ms total)
T1EB4 1034:792 JLINK_ReadReg(R6)  returns 0xA5A5A5A5 (0000ms, 10920ms total)
T1EB4 1034:792 JLINK_ReadReg(R7)  returns 0xA5A5A5A5 (0000ms, 10920ms total)
T1EB4 1034:792 JLINK_ReadReg(R8)  returns 0xA5A5A5A5 (0000ms, 10920ms total)
T1EB4 1034:792 JLINK_ReadReg(R9)  returns 0xA5A5A5A5 (0000ms, 10920ms total)
T1EB4 1034:792 JLINK_ReadReg(R10)  returns 0xA5A5A5A5 (0000ms, 10920ms total)
T1EB4 1034:792 JLINK_ReadReg(R11)  returns 0xA5A5A5A5 (0000ms, 10920ms total)
T1EB4 1034:792 JLINK_ReadReg(R12)  returns 0xA5A5A5A5 (0000ms, 10920ms total)
T1EB4 1034:792 JLINK_ReadReg(R13 (SP))  returns 0x0010C750 (0000ms, 10920ms total)
T1EB4 1034:792 JLINK_ReadReg(R14)  returns 0x001082CF (0000ms, 10920ms total)
T1EB4 1034:792 JLINK_ReadReg(R15 (PC))  returns 0x00102790 (0000ms, 10920ms total)
T1EB4 1034:792 JLINK_ReadReg(XPSR)  returns 0x21000000 (0000ms, 10920ms total)
T1EB4 1034:792 JLINK_ReadReg(MSP)  returns 0x00114F00 (0000ms, 10920ms total)
T1EB4 1034:792 JLINK_ReadReg(PSP)  returns 0x0010C750 (0000ms, 10920ms total)
T1EB4 1034:792 JLINK_ReadReg(CFBP)  returns 0x02000000 (0000ms, 10920ms total)
T1A0C 1034:798 JLINK_ReadMemEx(0x0010C754, 0x0004 Bytes, ..., Flags = 0x02000000) -- CPU_ReadMem(64 bytes @ 0x0010C740) -- Updating DA cache (64 bytes @ 0x0010C740) -- Read from DA cache (4 bytes @ 0x0010C754) - Data: C5 5F 10 00  returns 0x04 (0001ms, 10921ms total)
T1A0C 1034:800 JLINK_ReadMemEx(0x0010C750, 0x0004 Bytes, ..., Flags = 0x02000000) -- Read from DA cache (4 bytes @ 0x0010C750) - Data: FF FF FF FF  returns 0x04 (0000ms, 10922ms total)
T1A0C 1034:800 JLINK_ReadMemEx(0x00000000, 0x0004 Bytes, ..., Flags = 0x02000000) -- CPU_ReadMem(4 bytes @ 0x00000000) - Data: 50 FC 12 00  returns 0x04 (0000ms, 10922ms total)
T1EB4 1035:413 JLINK_ReadMemEx(0x00102790, 0x0002 Bytes, ..., Flags = 0x02000000) -- CPU_ReadMem(64 bytes @ 0x00102780) -- Updating DA cache (64 bytes @ 0x00102780) -- Read from DA cache (2 bytes @ 0x00102790) - Data: 17 20  returns 0x02 (0002ms, 10924ms total)
T1EB4 1035:415 JLINK_Step() -- Read from DA cache (2 bytes @ 0x00102790) -- CPU_ReadMem(4 bytes @ 0xE0001004) -- Simulated  returns 0x00 (0002ms, 10926ms total)
T1EB4 1035:417 JLINK_ReadReg(R15 (PC))  returns 0x00102792 (0000ms, 10926ms total)
T1EB4 1035:417 JLINK_ReadReg(XPSR)  returns 0x21000000 (0000ms, 10926ms total)
T1EB4 1035:417 JLINK_SetBPEx(Addr = 0x00108268, Type = 0xFFFFFFF2)  returns 0x0000000C (0000ms, 10926ms total)
T1EB4 1035:417 JLINK_SetBPEx(Addr = 0x00102790, Type = 0xFFFFFFF2)  returns 0x0000000D (0000ms, 10926ms total)
T1EB4 1035:417 JLINK_Go() -- CPU_WriteMem(4 bytes @ 0xE0002000) -- CPU_WriteMem(4 bytes @ 0xE0002000) -- CPU_ReadMem(4 bytes @ 0xE0001000) -- CPU_WriteMem(4 bytes @ 0xE0001000) -- CPU_WriteMem(4 bytes @ 0xE0001004) (0005ms, 10931ms total)
T1EB4 1035:522 JLINK_IsHalted()  returns TRUE (0004ms, 10935ms total)
T1EB4 1035:526 JLINK_Halt()  returns 0x00 (0000ms, 10931ms total)
T1EB4 1035:526 JLINK_IsHalted()  returns TRUE (0000ms, 10931ms total)
T1EB4 1035:526 JLINK_IsHalted()  returns TRUE (0000ms, 10931ms total)
T1EB4 1035:526 JLINK_IsHalted()  returns TRUE (0000ms, 10931ms total)
T1EB4 1035:526 JLINK_ReadReg(R15 (PC))  returns 0x00108268 (0000ms, 10931ms total)
T1EB4 1035:526 JLINK_ReadReg(XPSR)  returns 0x01000000 (0000ms, 10931ms total)
T1EB4 1035:526 JLINK_ClrBPEx(BPHandle = 0x0000000C)  returns 0x00 (0000ms, 10931ms total)
T1EB4 1035:526 JLINK_ClrBPEx(BPHandle = 0x0000000D)  returns 0x00 (0000ms, 10931ms total)
T1EB4 1035:526 JLINK_ReadMemU32(0xE000ED30, 0x0001 Items, ...) -- CPU_ReadMem(4 bytes @ 0xE000ED30) - Data: 02 00 00 00  returns 0x01 (0001ms, 10932ms total)
T1EB4 1035:527 JLINK_ReadMemU32(0xE0001028, 0x0001 Items, ...) -- CPU_ReadMem(4 bytes @ 0xE0001028) - Data: 00 00 00 00  returns 0x01 (0000ms, 10932ms total)
T1EB4 1035:527 JLINK_ReadMemU32(0xE0001038, 0x0001 Items, ...) -- CPU_ReadMem(4 bytes @ 0xE0001038) - Data: 00 00 00 00  returns 0x01 (0001ms, 10933ms total)
T1EB4 1035:528 JLINK_ReadReg(R0)  returns 0x10000000 (0000ms, 10933ms total)
T1EB4 1035:528 JLINK_ReadReg(R1)  returns 0xE000ED00 (0000ms, 10933ms total)
T1EB4 1035:528 JLINK_ReadReg(R2)  returns 0x0010C50C (0001ms, 10934ms total)
T1EB4 1035:529 JLINK_ReadReg(R3)  returns 0x80000000 (0000ms, 10934ms total)
T1EB4 1035:529 JLINK_ReadReg(R4)  returns 0x00000004 (0000ms, 10934ms total)
T1EB4 1035:529 JLINK_ReadReg(R5)  returns 0x00000000 (0000ms, 10934ms total)
T1EB4 1035:529 JLINK_ReadReg(R6)  returns 0xA5A5A5A5 (0000ms, 10934ms total)
T1EB4 1035:529 JLINK_ReadReg(R7)  returns 0xA5A5A5A5 (0000ms, 10934ms total)
T1EB4 1035:529 JLINK_ReadReg(R8)  returns 0xA5A5A5A5 (0000ms, 10934ms total)
T1EB4 1035:529 JLINK_ReadReg(R9)  returns 0xA5A5A5A5 (0000ms, 10934ms total)
T1EB4 1035:529 JLINK_ReadReg(R10)  returns 0xA5A5A5A5 (0000ms, 10934ms total)
T1EB4 1035:529 JLINK_ReadReg(R11)  returns 0xA5A5A5A5 (0000ms, 10934ms total)
T1EB4 1035:529 JLINK_ReadReg(R12)  returns 0x00000000 (0000ms, 10934ms total)
T1EB4 1035:529 JLINK_ReadReg(R13 (SP))  returns 0x0010C248 (0000ms, 10934ms total)
